1



                                 *********************************************

                                    NUMERICAL ELECTROMAGNETICS CODE (NEC-2D)

                                 *********************************************




                                     - - - - COMMENTS - - - -


                                                                                                     
                                                                                                     




                                 - - - STRUCTURE SPECIFICATION - - -

                                     COORDINATES MUST BE INPUT IN
                                     METERS OR BE SCALED TO METERS
                                     BEFORE STRUCTURE INPUT IS ENDED


  WIRE                                                                               NO. OF    FIRST  LAST     TAG
  NO.        X1         Y1         Z1          X2         Y2         Z2      RADIUS   SEG.     SEG.   SEG.     NO.
     1   -0.13600    0.00000    0.12000    -0.03100    0.00000    0.12000    0.00250      2        1     2       1
     2   -0.03100    0.00000    0.12000     0.02100    0.00000    0.12000    0.00250      1        3     3     999
     3    0.02100    0.00000    0.12000     0.13600    0.00000    0.12000    0.00250      2        4     5       1
     4   -0.13300   -0.33000    0.12600    -0.13300   -0.33000    0.96400    0.00250     17        6    22       3
     5    0.13300   -0.33000    0.12600     0.13300   -0.33000    0.96400    0.00250     17       23    39       3
     6   -0.13300   -0.33000    0.12600     0.13300   -0.33000    0.12600    0.00250      6       40    45       3
     7   -0.13300   -0.33000    0.96400     0.00000   -0.33000    0.96400    0.00250      1       46    46       3
     8    0.00000   -0.33000    0.96400     0.13300   -0.33000    0.96400    0.00250      1       47    47       3
     9   -0.13600    0.00000    0.00000    -0.13600    0.00000    0.12000    0.00250      1       48    48       2
    10    0.13600    0.00000    0.00000     0.13600    0.00000    0.12000    0.00250      1       49    49       2
    11   -0.13600    0.00000    0.00000     0.13600    0.00000    0.00000    0.00250      6       50    55       2
    12   -0.13600    0.00000    0.97000     0.00000    0.00000    0.97000    0.00250      1       56    56       2
    13   -0.13600    0.00000    0.12000    -0.13600    0.00000    0.97000    0.00250      1       57    57       2
    14    0.13600    0.00000    0.12000     0.13600    0.00000    0.97000    0.00250      1       58    58       2
    15    0.00000    0.00000    0.97000     0.13600    0.00000    0.97000    0.00250      1       59    59       2
    16    0.00000    0.00000    0.97000     0.00000   -0.33000    0.96400    0.00050      7       60    66       4
      THE STRUCTURE HAS BEEN MOVED, MOVE DATA CARD IS -
        0    0   0.00000   0.00000   0.00000   0.00000   0.00000   8.00000   0.00000

   GROUND PLANE SPECIFIED.

   TOTAL SEGMENTS USED=   66     NO. SEG. IN A SYMMETRIC CELL=   66     SYMMETRY FLAG=  0


         - MULTIPLE WIRE JUNCTIONS -
 JUNCTION    SEGMENTS  (- FOR END 1, + FOR END 2)
     1        -1   48  -57
     2         5   49  -58
     3        46  -47   66
     4        56  -59  -60




                                 - - - - SEGMENTATION DATA - - - -

                                        COORDINATES IN METERS

                         I+ AND I- INDICATE THE SEGMENTS BEFORE AND AFTER I


  SEG.   COORDINATES OF SEG. CENTER     SEG.     ORIENTATION ANGLES    WIRE    CONNECTION DATA   TAG
  NO.       X         Y         Z       LENGTH     ALPHA     BETA      RADIUS    I-   I    I+    NO.
     1  -0.10975   0.00000   8.12000   0.05250    0.00000   0.00000   0.00250    48    1    2      1
     2  -0.05725   0.00000   8.12000   0.05250    0.00000   0.00000   0.00250     1    2    3      1
     3  -0.00500   0.00000   8.12000   0.05200    0.00000   0.00000   0.00250     2    3    4    999
     4   0.04975   0.00000   8.12000   0.05750    0.00000   0.00000   0.00250     3    4    5      1
     5   0.10725   0.00000   8.12000   0.05750    0.00000   0.00000   0.00250     4    5  -49      1
     6  -0.13300  -0.33000   8.15065   0.04929   90.00000   0.00000   0.00250   -40    6    7      3
     7  -0.13300  -0.33000   8.19994   0.04929   90.00000   0.00000   0.00250     6    7    8      3
     8  -0.13300  -0.33000   8.24924   0.04929   90.00000   0.00000   0.00250     7    8    9      3
     9  -0.13300  -0.33000   8.29853   0.04929   90.00000   0.00000   0.00250     8    9   10      3
    10  -0.13300  -0.33000   8.34782   0.04929   90.00000   0.00000   0.00250     9   10   11      3
    11  -0.13300  -0.33000   8.39712   0.04929   90.00000   0.00000   0.00250    10   11   12      3
    12  -0.13300  -0.33000   8.44641   0.04929   90.00000   0.00000   0.00250    11   12   13      3
    13  -0.13300  -0.33000   8.49571   0.04929   90.00000   0.00000   0.00250    12   13   14      3
    14  -0.13300  -0.33000   8.54500   0.04929   90.00000   0.00000   0.00250    13   14   15      3
    15  -0.13300  -0.33000   8.59429   0.04929   90.00000   0.00000   0.00250    14   15   16      3
    16  -0.13300  -0.33000   8.64359   0.04929   90.00000   0.00000   0.00250    15   16   17      3
    17  -0.13300  -0.33000   8.69288   0.04929   90.00000   0.00000   0.00250    16   17   18      3
    18  -0.13300  -0.33000   8.74218   0.04929   90.00000   0.00000   0.00250    17   18   19      3
    19  -0.13300  -0.33000   8.79147   0.04929   90.00000   0.00000   0.00250    18   19   20      3
    20  -0.13300  -0.33000   8.84076   0.04929   90.00000   0.00000   0.00250    19   20   21      3
    21  -0.13300  -0.33000   8.89006   0.04929   90.00000   0.00000   0.00250    20   21   22      3
    22  -0.13300  -0.33000   8.93935   0.04929   90.00000   0.00000   0.00250    21   22   46      3
    23   0.13300  -0.33000   8.15065   0.04929   90.00000   0.00000   0.00250    45   23   24      3
    24   0.13300  -0.33000   8.19994   0.04929   90.00000   0.00000   0.00250    23   24   25      3
    25   0.13300  -0.33000   8.24924   0.04929   90.00000   0.00000   0.00250    24   25   26      3
    26   0.13300  -0.33000   8.29853   0.04929   90.00000   0.00000   0.00250    25   26   27      3
    27   0.13300  -0.33000   8.34782   0.04929   90.00000   0.00000   0.00250    26   27   28      3
    28   0.13300  -0.33000   8.39712   0.04929   90.00000   0.00000   0.00250    27   28   29      3
    29   0.13300  -0.33000   8.44641   0.04929   90.00000   0.00000   0.00250    28   29   30      3
    30   0.13300  -0.33000   8.49571   0.04929   90.00000   0.00000   0.00250    29   30   31      3
    31   0.13300  -0.33000   8.54500   0.04929   90.00000   0.00000   0.00250    30   31   32      3
    32   0.13300  -0.33000   8.59429   0.04929   90.00000   0.00000   0.00250    31   32   33      3
    33   0.13300  -0.33000   8.64359   0.04929   90.00000   0.00000   0.00250    32   33   34      3
    34   0.13300  -0.33000   8.69288   0.04929   90.00000   0.00000   0.00250    33   34   35      3
    35   0.13300  -0.33000   8.74218   0.04929   90.00000   0.00000   0.00250    34   35   36      3
    36   0.13300  -0.33000   8.79147   0.04929   90.00000   0.00000   0.00250    35   36   37      3
    37   0.13300  -0.33000   8.84076   0.04929   90.00000   0.00000   0.00250    36   37   38      3
    38   0.13300  -0.33000   8.89006   0.04929   90.00000   0.00000   0.00250    37   38   39      3
    39   0.13300  -0.33000   8.93935   0.04929   90.00000   0.00000   0.00250    38   39  -47      3
    40  -0.11083  -0.33000   8.12600   0.04433    0.00000   0.00000   0.00250    -6   40   41      3
    41  -0.06650  -0.33000   8.12600   0.04433    0.00000   0.00000   0.00250    40   41   42      3
    42  -0.02217  -0.33000   8.12600   0.04433    0.00000   0.00000   0.00250    41   42   43      3
    43   0.02217  -0.33000   8.12600   0.04433    0.00000   0.00000   0.00250    42   43   44      3
    44   0.06650  -0.33000   8.12600   0.04433    0.00000   0.00000   0.00250    43   44   45      3
    45   0.11083  -0.33000   8.12600   0.04433    0.00000   0.00000   0.00250    44   45   23      3
    46  -0.06650  -0.33000   8.96400   0.13300    0.00000   0.00000   0.00250    22   46   47      3
    47   0.06650  -0.33000   8.96400   0.13300    0.00000   0.00000   0.00250    66   47  -39      3
    48  -0.13600   0.00000   8.06000   0.12000   90.00000   0.00000   0.00250   -50   48   57      2
    49   0.13600   0.00000   8.06000   0.12000   90.00000   0.00000   0.00250    55   49   58      2
    50  -0.11333   0.00000   8.00000   0.04533    0.00000   0.00000   0.00250   -48   50   51      2
    51  -0.06800   0.00000   8.00000   0.04533    0.00000   0.00000   0.00250    50   51   52      2
    52  -0.02267   0.00000   8.00000   0.04533    0.00000   0.00000   0.00250    51   52   53      2
    53   0.02267   0.00000   8.00000   0.04533    0.00000   0.00000   0.00250    52   53   54      2
    54   0.06800   0.00000   8.00000   0.04533    0.00000   0.00000   0.00250    53   54   55      2
    55   0.11333   0.00000   8.00000   0.04533    0.00000   0.00000   0.00250    54   55   49      2
    56  -0.06800   0.00000   8.97000   0.13600    0.00000   0.00000   0.00250    57   56   59      2
    57  -0.13600   0.00000   8.54500   0.85000   90.00000   0.00000   0.00250    -1   57   56      2
    58   0.13600   0.00000   8.54500   0.85000   90.00000   0.00000   0.00250     5   58  -59      2
    59   0.06800   0.00000   8.97000   0.13600    0.00000   0.00000   0.00250   -60   59  -58      2
    60   0.00000  -0.02357   8.96957   0.04715   -1.04163 -90.00000   0.00050    56   60   61      4
    61   0.00000  -0.07071   8.96871   0.04715   -1.04163 -90.00000   0.00050    60   61   62      4
    62   0.00000  -0.11786   8.96786   0.04715   -1.04163 -90.00000   0.00050    61   62   63      4
    63   0.00000  -0.16500   8.96700   0.04715   -1.04163 -90.00000   0.00050    62   63   64      4
    64   0.00000  -0.21214   8.96614   0.04715   -1.04163 -90.00000   0.00050    63   64   65      4
    65   0.00000  -0.25929   8.96529   0.04715   -1.04163 -90.00000   0.00050    64   65   66      4
    66   0.00000  -0.30643   8.96443   0.04715   -1.04163 -90.00000   0.00050    65   66  -46      4






 ***** DATA CARD NO.  1   GN   2     0     0     0  1.10000E+01  1.00000E-02  0.00000E+00  0.00000E+00  0.00000E+00  0.00000E+00
 ***** DATA CARD NO.  2   EK   0     0     0     0  0.00000E+00  0.00000E+00  0.00000E+00  0.00000E+00  0.00000E+00  0.00000E+00
 ***** DATA CARD NO.  3   EX   0   999     1     0  1.00000E+00  0.00000E+00  0.00000E+00  0.00000E+00  0.00000E+00  0.00000E+00
 ***** DATA CARD NO.  4   FR   0     1     0     0  1.44200E+02  0.00000E+00  0.00000E+00  0.00000E+00  0.00000E+00  0.00000E+00
 ***** DATA CARD NO.  5   RP   0    19    37  1003  0.00000E+00  9.00000E+01  5.00000E+00  1.00000E+01  0.00000E+00  0.00000E+00




                                 - - - - - - FREQUENCY - - - - - -

                                    FREQUENCY= 1.4420E+02 MHZ
                                    WAVELENGTH= 2.0791E+00 METERS




                    APPROXIMATE INTEGRATION EMPLOYED FOR SEGMENTS MORE THAN   1.000 WAVELENGTHS APART

                    THE EXTENDED THIN WIRE KERNEL WILL BE USED



                               - - - STRUCTURE IMPEDANCE LOADING - - -

                                   THIS STRUCTURE IS NOT LOADED



                                  - - - ANTENNA ENVIRONMENT - - -

                                        FINITE GROUND.  SOMMERFELD SOLUTION
                                        RELATIVE DIELECTRIC CONST.= 11.000
                                        CONDUCTIVITY= 1.000E-02 MHOS/METER
                                        COMPLEX DIELECTRIC CONSTANT= 1.10000E+01-1.24660E+00



                                - - - MATRIX TIMING - - -

                        FILL=    0.016 SEC.,  FACTOR=    0.000 SEC.



                                          - - - ANTENNA INPUT PARAMETERS - - -

   TAG   SEG.    VOLTAGE (VOLTS)         CURRENT (AMPS)         IMPEDANCE (OHMS)        ADMITTANCE (MHOS)      POWER
   NO.   NO.    REAL        IMAG.       REAL        IMAG.       REAL        IMAG.       REAL        IMAG.     (WATTS)
   999     3 1.00000E+00 0.00000E+00 1.85221E-02 2.64198E-03 5.29131E+01-7.54751E+00 1.85221E-02 2.64198E-03 9.26103E-03



                             - - - CURRENTS AND LOCATION - - -

                                 DISTANCES IN WAVELENGTHS


  SEG.  TAG    COORD. OF SEG. CENTER     SEG.            - - - CURRENT (AMPS) - - -
  NO.   NO.     X        Y        Z      LENGTH     REAL        IMAG.       MAG.        PHASE
     1    1  -0.0528   0.0000   3.9056  0.02525   1.7686E-02  1.9495E-03  1.7793E-02    6.290
     2    1  -0.0275   0.0000   3.9056  0.02525   1.8283E-02  2.3002E-03  1.8427E-02    7.171
     3  999  -0.0024   0.0000   3.9056  0.02501   1.8522E-02  2.6420E-03  1.8710E-02    8.118
     4    1   0.0239   0.0000   3.9056  0.02766   1.8349E-02  2.2831E-03  1.8490E-02    7.093
     5    1   0.0516   0.0000   3.9056  0.02766   1.7740E-02  1.9017E-03  1.7841E-02    6.119
     6    3  -0.0640  -0.1587   3.9204  0.02371   2.7079E-02 -9.9441E-03  2.8847E-02  -20.164
     7    3  -0.0640  -0.1587   3.9441  0.02371   2.5147E-02 -9.2311E-03  2.6787E-02  -20.158
     8    3  -0.0640  -0.1587   3.9678  0.02371   2.2680E-02 -8.3242E-03  2.4159E-02  -20.155
     9    3  -0.0640  -0.1587   3.9915  0.02371   1.9726E-02 -7.2400E-03  2.1013E-02  -20.155
    10    3  -0.0640  -0.1587   4.0152  0.02371   1.6346E-02 -6.0006E-03  1.7412E-02  -20.159
    11    3  -0.0640  -0.1587   4.0389  0.02371   1.2611E-02 -4.6320E-03  1.3435E-02  -20.169
    12    3  -0.0640  -0.1587   4.0626  0.02371   8.6020E-03 -3.1636E-03  9.1653E-03  -20.192
    13    3  -0.0640  -0.1587   4.0863  0.02371   4.4063E-03 -1.6269E-03  4.6971E-03  -20.266
    14    3  -0.0640  -0.1587   4.1100  0.02371   1.1552E-04 -5.5539E-05  1.2818E-04  -25.677
    15    3  -0.0640  -0.1587   4.1337  0.02371  -4.1763E-03  1.5164E-03  4.4431E-03  160.044
    16    3  -0.0640  -0.1587   4.1575  0.02371  -8.3750E-03  3.0548E-03  8.9147E-03  159.960
    17    3  -0.0640  -0.1587   4.1812  0.02371  -1.2389E-02  4.5262E-03  1.3190E-02  159.930
    18    3  -0.0640  -0.1587   4.2049  0.02371  -1.6130E-02  5.8989E-03  1.7174E-02  159.912
    19    3  -0.0640  -0.1587   4.2286  0.02371  -1.9517E-02  7.1436E-03  2.0783E-02  159.896
    20    3  -0.0640  -0.1587   4.2523  0.02371  -2.2478E-02  8.2343E-03  2.3939E-02  159.881
    21    3  -0.0640  -0.1587   4.2760  0.02371  -2.4952E-02  9.1491E-03  2.6576E-02  159.863
    22    3  -0.0640  -0.1587   4.2997  0.02371  -2.6890E-02  9.8711E-03  2.8645E-02  159.843
    23    3   0.0640  -0.1587   3.9204  0.02371  -2.7093E-02  9.9607E-03  2.8866E-02  159.814
    24    3   0.0640  -0.1587   3.9441  0.02371  -2.5165E-02  9.2520E-03  2.6812E-02  159.814
    25    3   0.0640  -0.1587   3.9678  0.02371  -2.2702E-02  8.3486E-03  2.4188E-02  159.809
    26    3   0.0640  -0.1587   3.9915  0.02371  -1.9751E-02  7.2672E-03  2.1045E-02  159.799
    27    3   0.0640  -0.1587   4.0152  0.02371  -1.6373E-02  6.0296E-03  1.7448E-02  159.783
    28    3   0.0640  -0.1587   4.0389  0.02371  -1.2640E-02  4.6619E-03  1.3472E-02  159.755
    29    3   0.0640  -0.1587   4.0626  0.02371  -8.6326E-03  3.1933E-03  9.2043E-03  159.700
    30    3   0.0640  -0.1587   4.0863  0.02371  -4.4375E-03  1.6556E-03  4.7363E-03  159.539
    31    3   0.0640  -0.1587   4.1100  0.02371  -1.4671E-04  8.2330E-05  1.6823E-04  150.699
    32    3   0.0640  -0.1587   4.1337  0.02371   4.1457E-03 -1.4924E-03  4.4062E-03  -19.798
    33    3   0.0640  -0.1587   4.1575  0.02371   8.3457E-03 -3.0343E-03  8.8802E-03  -19.980
    34    3   0.0640  -0.1587   4.1812  0.02371   1.2361E-02 -4.5098E-03  1.3158E-02  -20.044
    35    3   0.0640  -0.1587   4.2049  0.02371   1.6104E-02 -5.8873E-03  1.7147E-02  -20.081
    36    3   0.0640  -0.1587   4.2286  0.02371   1.9494E-02 -7.1372E-03  2.0760E-02  -20.109
    37    3   0.0640  -0.1587   4.2523  0.02371   2.2459E-02 -8.2335E-03  2.3920E-02  -20.133
    38    3   0.0640  -0.1587   4.2760  0.02371   2.4936E-02 -9.1540E-03  2.6563E-02  -20.158
    39    3   0.0640  -0.1587   4.2997  0.02371   2.6879E-02 -9.8819E-03  2.8638E-02  -20.186
    40    3  -0.0533  -0.1587   3.9085  0.02132  -2.8404E-02  1.0436E-02  3.0261E-02  159.826
    41    3  -0.0320  -0.1587   3.9085  0.02132  -2.9250E-02  1.0749E-02  3.1163E-02  159.823
    42    3  -0.0107  -0.1587   3.9085  0.02132  -2.9681E-02  1.0908E-02  3.1622E-02  159.822
    43    3   0.0107  -0.1587   3.9085  0.02132  -2.9684E-02  1.0910E-02  3.1625E-02  159.819
    44    3   0.0320  -0.1587   3.9085  0.02132  -2.9257E-02  1.0756E-02  3.1171E-02  159.815
    45    3   0.0533  -0.1587   3.9085  0.02132  -2.8415E-02  1.0448E-02  3.0275E-02  159.812
    46    3  -0.0320  -0.1587   4.3116  0.06397  -2.9056E-02  1.0687E-02  3.0959E-02  159.805
    47    3   0.0320  -0.1587   4.3116  0.06397  -2.9051E-02  1.0709E-02  3.0962E-02  159.766
    48    2  -0.0654   0.0000   3.8768  0.05772  -6.1379E-03 -3.3106E-03  6.9738E-03 -151.659
    49    2   0.0654   0.0000   3.8768  0.05772   6.1261E-03  3.3134E-03  6.9647E-03   28.407
    50    2  -0.0545   0.0000   3.8479  0.02180   7.1031E-03  3.5668E-03  7.9483E-03   26.663
    51    2  -0.0327   0.0000   3.8479  0.02180   7.4373E-03  3.6491E-03  8.2843E-03   26.135
    52    2  -0.0109   0.0000   3.8479  0.02180   7.6026E-03  3.6890E-03  8.4504E-03   25.884
    53    2   0.0109   0.0000   3.8479  0.02180   7.6011E-03  3.6901E-03  8.4495E-03   25.895
    54    2   0.0327   0.0000   3.8479  0.02180   7.4329E-03  3.6519E-03  8.2815E-03   26.165
    55    2   0.0545   0.0000   3.8479  0.02180   7.0960E-03  3.5701E-03  7.9435E-03   26.708
    56    2  -0.0327   0.0000   4.3145  0.06541   2.3193E-02  5.1038E-03  2.3748E-02   12.410
    57    2  -0.0654   0.0000   4.1100  0.40884  -1.5979E-03  8.6748E-05  1.6002E-03  176.893
    58    2   0.0654   0.0000   4.1100  0.40884   1.5764E-03 -1.1414E-04  1.5805E-03   -4.141
    59    2   0.0327   0.0000   4.3145  0.06541   2.3208E-02  5.0762E-03  2.3757E-02   12.338
    60    4   0.0000  -0.0113   4.3143  0.02268  -1.0593E-05  3.1425E-05  3.3162E-05  108.628
    61    4   0.0000  -0.0340   4.3138  0.02268  -9.2393E-06  3.1897E-05  3.3208E-05  106.154
    62    4   0.0000  -0.0567   4.3134  0.02268  -7.6685E-06  3.1960E-05  3.2867E-05  103.492
    63    4   0.0000  -0.0794   4.3130  0.02268  -5.9765E-06  3.1585E-05  3.2145E-05  100.715
    64    4   0.0000  -0.1020   4.3126  0.02268  -4.2271E-06  3.0783E-05  3.1072E-05   97.819
    65    4   0.0000  -0.1247   4.3122  0.02268  -2.4878E-06  2.9591E-05  2.9696E-05   94.806
    66    4   0.0000  -0.1474   4.3118  0.02268  -8.7436E-07  2.8116E-05  2.8129E-05   91.781



                                        - - - POWER BUDGET - - -

                                           INPUT POWER   = 9.2610E-03 WATTS
                                           RADIATED POWER= 9.2610E-03 WATTS
                                           STRUCTURE LOSS= 0.0000E+00 WATTS
                                           NETWORK LOSS  = 0.0000E+00 WATTS
                                           EFFICIENCY    = 100.00 PERCENT



                                                - - - RADIATION PATTERNS - - -

  - - ANGLES - -           - POWER GAINS -       - - - POLARIZATION - - -    - - - E(THETA) - - -    - - - E(PHI) - - -
